Freq.	V(n003)
1.00000000000000e-001	(-1.92336442248153e-007dB,-1.37159998272856e-002°)
1.00230523807790e-001	(-1.93224221420115e-007dB,-1.37476184715649e-002°)
1.00461579027840e-001	(-1.94116104769958e-007dB,-1.37793100043414e-002°)
1.00693166885180e-001	(-1.95012101940956e-007dB,-1.38110745936404e-002°)
1.00925288607668e-001	(-1.95912242827264e-007dB,-1.38429124078746e-002°)
1.01157945425990e-001	(-1.96816532250521e-007dB,-1.38748236158448e-002°)
1.01391138573668e-001	(-1.97724991425932e-007dB,-1.39068083867411e-002°)
1.01624869287070e-001	(-1.98637650247651e-007dB,-1.39388668901434e-002°)
1.01859138805412e-001	(-1.99554520287609e-007dB,-1.39709992960227e-002°)
1.02093948370768e-001	(-2.00475620832358e-007dB,-1.40032057747418e-002°)
1.02329299228075e-001	(-2.01400975025757e-007dB,-1.40354864970561e-002°)
1.02565192625141e-001	(-2.02330602154359e-007dB,-1.40678416341147e-002°)
1.02801629812647e-001	(-2.03264516683077e-007dB,-1.41002713574614e-002°)
1.03038612044162e-001	(-2.04202745613083e-007dB,-1.41327758390352e-002°)
1.03276140576140e-001	(-2.05145301480634e-007dB,-1.41653552511717e-002°)
1.03514216667934e-001	(-2.06092211286902e-007dB,-1.41980097666035e-002°)
1.03752841581801e-001	(-2.07043486603819e-007dB,-1.42307395584615e-002°)
1.03992016582906e-001	(-2.07999157325538e-007dB,-1.42635448002759e-002°)
1.04231742939330e-001	(-2.08959235988317e-007dB,-1.42964256659767e-002°)
1.04472021922080e-001	(-2.09923748629001e-007dB,-1.43293823298950e-002°)
1.04712854805090e-001	(-2.10892710676831e-007dB,-1.43624149667635e-002°)
1.04954242865232e-001	(-2.11866150097305e-007dB,-1.43955237517181e-002°)
1.05196187382322e-001	(-2.12844081355338e-007dB,-1.44287088602980e-002°)
1.05438689639126e-001	(-2.13826524701808e-007dB,-1.44619704684475e-002°)
1.05681750921366e-001	(-2.14813501351921e-007dB,-1.44953087525162e-002°)
1.05925372517729e-001	(-2.15805034449540e-007dB,-1.45287238892603e-002°)
1.06169555719872e-001	(-2.16801143281214e-007dB,-1.45622160558434e-002°)
1.06414301822431e-001	(-2.17801855812443e-007dB,-1.45957854298377e-002°)
1.06659612123026e-001	(-2.18807185543814e-007dB,-1.46294321892245e-002°)
1.06905487922266e-001	(-2.19817151761878e-007dB,-1.46631565123956e-002°)
1.07151930523760e-001	(-2.20831778574823e-007dB,-1.46969585781539e-002°)
1.07398941234124e-001	(-2.21851088162185e-007dB,-1.47308385657145e-002°)
1.07646521362983e-001	(-2.22875106560806e-007dB,-1.47647966547058e-002°)
1.07894672222983e-001	(-2.23903854985892e-007dB,-1.47988330251699e-002°)
1.08143395129794e-001	(-2.24937348866687e-007dB,-1.48329478575644e-002°)
1.08392691402120e-001	(-2.25975613275706e-007dB,-1.48671413327625e-002°)
1.08642562361706e-001	(-2.27018670392483e-007dB,-1.49014136320547e-002°)
1.08893009333343e-001	(-2.28066536610587e-007dB,-1.49357649371492e-002°)
1.09144033644875e-001	(-2.29119244717154e-007dB,-1.49701954301732e-002°)
1.09395636627209e-001	(-2.30176811105755e-007dB,-1.50047052936735e-002°)
1.09647819614318e-001	(-2.31239259884578e-007dB,-1.50392947106180e-002°)
1.09900583943252e-001	(-2.32306612268829e-007dB,-1.50739638643963e-002°)
1.10153930954141e-001	(-2.33378891402370e-007dB,-1.51087129388208e-002°)
1.10407861990207e-001	(-2.34456118500408e-007dB,-1.51435421181274e-002°)
1.10662378397766e-001	(-2.35538318635459e-007dB,-1.51784515869770e-002°)
1.10917481526240e-001	(-2.36625515915713e-007dB,-1.52134415304560e-002°)
1.11173172728159e-001	(-2.37717727699067e-007dB,-1.52485121340775e-002°)
1.11429453359173e-001	(-2.38814985808329e-007dB,-1.52836635837823e-002°)
1.11686324778056e-001	(-2.39917301815432e-007dB,-1.53188960659400e-002°)
1.11943788346715e-001	(-2.41024712364821e-007dB,-1.53542097673493e-002°)
1.12201845430196e-001	(-2.42137232885739e-007dB,-1.53896048752402e-002°)
1.12460497396692e-001	(-2.43254885557721e-007dB,-1.54250815772737e-002°)
1.12719745617551e-001	(-2.44377702203575e-007dB,-1.54606400615438e-002°)
1.12979591467279e-001	(-2.45505699216871e-007dB,-1.54962805165780e-002°)
1.13240036323555e-001	(-2.46638900705799e-007dB,-1.55320031313383e-002°)
1.13501081567231e-001	(-2.47777331742874e-007dB,-1.55678080952224e-002°)
1.13762728582343e-001	(-2.48921023186580e-007dB,-1.56036955980646e-002°)
1.14024978756117e-001	(-2.50069989501829e-007dB,-1.56396658301368e-002°)
1.14287833478977e-001	(-2.51224257689796e-007dB,-1.56757189821494e-002°)
1.14551294144553e-001	(-2.52383856680306e-007dB,-1.57118552452527e-002°)
1.14815362149688e-001	(-2.53548805759911e-007dB,-1.57480748110374e-002°)
1.15080038894443e-001	(-2.54719135787093e-007dB,-1.57843778715360e-002°)
1.15345325782109e-001	(-2.55894864119751e-007dB,-1.58207646192237e-002°)
1.15611224219209e-001	(-2.57076021616364e-007dB,-1.58572352470191e-002°)
1.15877735615512e-001	(-2.58262632385124e-007dB,-1.58937899482860e-002°)
1.16144861384034e-001	(-2.59454714748254e-007dB,-1.59304289168337e-002°)
1.16412602941049e-001	(-2.60652306314530e-007dB,-1.59671523469181e-002°)
1.16680961706096e-001	(-2.61855418655884e-007dB,-1.60039604332433e-002°)
1.16949939101987e-001	(-2.63064092274072e-007dB,-1.60408533709619e-002°)
1.17219536554813e-001	(-2.64278340669682e-007dB,-1.60778313556765e-002°)
1.17489755493952e-001	(-2.65498194701196e-007dB,-1.61148945834406e-002°)
1.17760597352080e-001	(-2.66723674619494e-007dB,-1.61520432507598e-002°)
1.18032063565172e-001	(-2.67954818033351e-007dB,-1.61892775545925e-002°)
1.18304155572516e-001	(-2.69191638443354e-007dB,-1.62265976923511e-002°)
1.18576874816716e-001	(-2.70434171529623e-007dB,-1.62640038619032e-002°)
1.18850222743701e-001	(-2.71682440436020e-007dB,-1.63014962615725e-002°)
1.19124200802737e-001	(-2.72936471199390e-007dB,-1.63390750901400e-002°)
1.19398810446427e-001	(-2.74196285999268e-007dB,-1.63767405468447e-002°)
1.19674053130724e-001	(-2.75461920515774e-007dB,-1.64144928313850e-002°)
1.19949930314937e-001	(-2.76733393071133e-007dB,-1.64523321439198e-002°)
1.20226443461741e-001	(-2.78010741274120e-007dB,-1.64902586850692e-002°)
1.20503594037179e-001	(-2.79293977660995e-007dB,-1.65282726559159e-002°)
1.20781383510677e-001	(-2.80583140804860e-007dB,-1.65663742580060e-002°)
1.21059813355048e-001	(-2.81878251920923e-007dB,-1.66045636933503e-002°)
1.21338885046497e-001	(-2.83179339939013e-007dB,-1.66428411644255e-002°)
1.21618600064636e-001	(-2.84486438610592e-007dB,-1.66812068741747e-002°)
1.21898959892486e-001	(-2.85799570115198e-007dB,-1.67196610260089e-002°)
1.22179966016487e-001	(-2.87118761454002e-007dB,-1.67582038238083e-002°)
1.22461619926504e-001	(-2.88444039628178e-007dB,-1.67968354719228e-002°)
1.22743923115840e-001	(-2.89775439353518e-007dB,-1.68355561751734e-002°)
1.23026877081238e-001	(-2.91112982809557e-007dB,-1.68743661388534e-002°)
1.23310483322890e-001	(-2.92456698926124e-007dB,-1.69132655687292e-002°)
1.23594743344450e-001	(-2.93806617597373e-007dB,-1.69522546710416e-002°)
1.23879658653036e-001	(-2.95162765824477e-007dB,-1.69913336525069e-002°)
1.24165230759240e-001	(-2.96525176394575e-007dB,-1.70305027203179e-002°)
1.24451461177138e-001	(-2.97893873415857e-007dB,-1.70697620821450e-002°)
1.24738351424294e-001	(-2.99268889675460e-007dB,-1.71091119461373e-002°)
1.25025903021771e-001	(-3.00650251210231e-007dB,-1.71485525209237e-002°)
1.25314117494141e-001	(-3.02037986949996e-007dB,-1.71880840156142e-002°)
1.25602996369487e-001	(-3.03432128717568e-007dB,-1.72277066398006e-002°)
1.25892541179416e-001	(-3.04832710264411e-007dB,-1.72674206035583e-002°)
1.26182753459066e-001	(-3.06239754734388e-007dB,-1.73072261174464e-002°)
1.26473634747114e-001	(-3.07653289128674e-007dB,-1.73471233925098e-002°)
1.26765186585784e-001	(-3.09073354913352e-007dB,-1.73871126402797e-002°)
1.27057410520853e-001	(-3.10499975232288e-007dB,-1.74271940727751e-002°)
1.27350308101665e-001	(-3.11933176122325e-007dB,-1.74673679025036e-002°)
1.27643880881134e-001	(-3.13372996156569e-007dB,-1.75076343424628e-002°)
1.27938130415752e-001	(-3.14819461371863e-007dB,-1.75479936061412e-002°)
1.28233058265601e-001	(-3.16272597805056e-007dB,-1.75884459075195e-002°)
1.28528665994361e-001	(-3.17732444993576e-007dB,-1.76289914610717e-002°)
1.28824955169313e-001	(-3.19199036688891e-007dB,-1.76696304817662e-002°)
1.29121927361353e-001	(-3.20672389284572e-007dB,-1.77103631850668e-002°)
1.29419584144998e-001	(-3.22152545211031e-007dB,-1.77511897869343e-002°)
1.29717927098395e-001	(-3.23639532433769e-007dB,-1.77921105038270e-002°)
1.30016957803328e-001	(-3.25133383739927e-007dB,-1.78331255527025e-002°)
1.30316677845229e-001	(-3.26634133845296e-007dB,-1.78742351510184e-002°)
1.30617088813183e-001	(-3.28141807822396e-007dB,-1.79154395167335e-002°)
1.30918192299940e-001	(-3.29656442315675e-007dB,-1.79567388683091e-002°)
1.31219989901919e-001	(-3.31178068183618e-007dB,-1.79981334247103e-002°)
1.31522483219223e-001	(-3.32706712427398e-007dB,-1.80396234054066e-002°)
1.31825673855640e-001	(-3.34242424227721e-007dB,-1.80812090303738e-002°)
1.32129563418657e-001	(-3.35785214192193e-007dB,-1.81228905200946e-002°)
1.32434153519466e-001	(-3.37335130537195e-007dB,-1.81646680955599e-002°)
1.32739445772973e-001	(-3.38892195442261e-007dB,-1.82065419782702e-002°)
1.33045441797808e-001	(-3.40456447480496e-007dB,-1.82485123902366e-002°)
1.33352143216331e-001	(-3.42027928117987e-007dB,-1.82905795539817e-002°)
1.33659551654643e-001	(-3.43606654712633e-007dB,-1.83327436925416e-002°)
1.33967668742593e-001	(-3.45192670659175e-007dB,-1.83750050294660e-002°)
1.34276496113785e-001	(-3.46786003923115e-007dB,-1.84173637888203e-002°)
1.34586035405594e-001	(-3.48386699827849e-007dB,-1.84598201951863e-002°)
1.34896288259164e-001	(-3.49994778624260e-007dB,-1.85023744736635e-002°)
1.35207256319427e-001	(-3.51610279849780e-007dB,-1.85450268498703e-002°)
1.35518941235103e-001	(-3.53233241113184e-007dB,-1.85877775499453e-002°)
1.35831344658714e-001	(-3.54863692308630e-007dB,-1.86306268005482e-002°)
1.36144468246594e-001	(-3.56501667187586e-007dB,-1.86735748288615e-002°)
1.36458313658891e-001	(-3.58147202394499e-007dB,-1.87166218625911e-002°)
1.36772882559584e-001	(-3.59800334573821e-007dB,-1.87597681299680e-002°)
1.37088176616484e-001	(-3.61461099405672e-007dB,-1.88030138597493e-002°)
1.37404197501250e-001	(-3.63129527748539e-007dB,-1.88463592812195e-002°)
1.37720946889394e-001	(-3.64805660104179e-007dB,-1.88898046241915e-002°)
1.38038426460287e-001	(-3.66489527331079e-007dB,-1.89333501190080e-002°)
1.38356637897177e-001	(-3.68181163180705e-007dB,-1.89769959965428e-002°)
1.38675582887188e-001	(-3.69880609119144e-007dB,-1.90207424882019e-002°)
1.38995263121334e-001	(-3.71587901790847e-007dB,-1.90645898259247e-002°)
1.39315680294529e-001	(-3.73303073982954e-007dB,-1.91085382421852e-002°)
1.39636836105593e-001	(-3.75026158482604e-007dB,-1.91525879699935e-002°)
1.39958732257261e-001	(-3.76757202541850e-007dB,-1.91967392428967e-002°)
1.40281370456195e-001	(-3.78496236054849e-007dB,-1.92409922949802e-002°)
1.40604752412990e-001	(-3.80243291808742e-007dB,-1.92853473608694e-002°)
1.40928879842186e-001	(-3.81998420912892e-007dB,-1.93298046757300e-002°)
1.41253754462274e-001	(-3.83761640725197e-007dB,-1.93743644752703e-002°)
1.41579377995707e-001	(-3.85533004283678e-007dB,-1.94190269957418e-002°)
1.41905752168908e-001	(-3.87312543411146e-007dB,-1.94637924739405e-002°)
1.42232878712281e-001	(-3.89100297645033e-007dB,-1.95086611472084e-002°)
1.42560759360218e-001	(-3.90896299772482e-007dB,-1.95536332534346e-002°)
1.42889395851109e-001	(-3.92700598974199e-007dB,-1.95987090310566e-002°)
1.43218789927353e-001	(-3.94513220322705e-007dB,-1.96438887190615e-002°)
1.43548943335364e-001	(-3.96334212034381e-007dB,-1.96891725569874e-002°)
1.43879857825583e-001	(-3.98163607860695e-007dB,-1.97345607849245e-002°)
1.44211535152486e-001	(-4.00001445410426e-007dB,-1.97800536435165e-002°)
1.44543977074591e-001	(-4.01847768078316e-007dB,-1.98256513739620e-002°)
1.44877185354475e-001	(-4.03702613473144e-007dB,-1.98713542180153e-002°)
1.45211161758773e-001	(-4.05566022096671e-007dB,-1.99171624179883e-002°)
1.45545908058195e-001	(-4.07438031557675e-007dB,-1.99630762167512e-002°)
1.45881426027534e-001	(-4.09318676571953e-007dB,-2.00090958577345e-002°)
1.46217717445671e-001	(-4.11208011141850e-007dB,-2.00552215849294e-002°)
1.46554784095590e-001	(-4.13106060339888e-007dB,-2.01014536428898e-002°)
1.46892627764385e-001	(-4.15012867560811e-007dB,-2.01477922767333e-002°)
1.47231250243271e-001	(-4.16928478128016e-007dB,-2.01942377321426e-002°)
1.47570653327588e-001	(-4.18852937364905e-007dB,-2.02407902553667e-002°)
1.47910838816819e-001	(-4.20786270343996e-007dB,-2.02874500932223e-002°)
1.48251808514594e-001	(-4.22728531067638e-007dB,-2.03342174930950e-002°)
1.48593564228699e-001	(-4.24679758108936e-007dB,-2.03810927029407e-002°)
1.48936107771090e-001	(-4.26639994862636e-007dB,-2.04280759712871e-002°)
1.49279440957898e-001	(-4.28609271222895e-007dB,-2.04751675472345e-002°)
1.49623565609442e-001	(-4.30587642156389e-007dB,-2.05223676804577e-002°)
1.49968483550236e-001	(-4.32575144307569e-007dB,-2.05696766212068e-002°)
1.50314196609001e-001	(-4.34571818178196e-007dB,-2.06170946203090e-002°)
1.50660706618673e-001	(-4.36577714877637e-007dB,-2.06646219291696e-002°)
1.51008015416413e-001	(-4.38592865264377e-007dB,-2.07122587997735e-002°)
1.51356124843619e-001	(-4.40617318519126e-007dB,-2.07600054846865e-002°)
1.51705036745932e-001	(-4.42651116107975e-007dB,-2.08078622370566e-002°)
1.52054752973248e-001	(-4.44694302389994e-007dB,-2.08558293106154e-002°)
1.52405275379728e-001	(-4.46746914009637e-007dB,-2.09039069596792e-002°)
1.52756605823806e-001	(-4.48809004004924e-007dB,-2.09520954391509e-002°)
1.53108746168202e-001	(-4.50880610948961e-007dB,-2.10003950045208e-002°)
1.53461698279928e-001	(-4.52961782093805e-007dB,-2.10488059118682e-002°)
1.53815464030302e-001	(-4.55052559869873e-007dB,-2.10973284178627e-002°)
1.54170045294954e-001	(-4.57152986707581e-007dB,-2.11459627797657e-002°)
1.54525443953840e-001	(-4.59263110823315e-007dB,-2.11947092554314e-002°)
1.54881661891247e-001	(-4.61382966932870e-007dB,-2.12435681033087e-002°)
1.55238700995807e-001	(-4.63512614824560e-007dB,-2.12925395824422e-002°)
1.55596563160506e-001	(-4.65652096928804e-007dB,-2.13416239524734e-002°)
1.55955250282694e-001	(-4.67801446032744e-007dB,-2.13908214736429e-002°)
1.56314764264094e-001	(-4.69960718067384e-007dB,-2.14401324067905e-002°)
1.56675107010813e-001	(-4.72129961249106e-007dB,-2.14895570133579e-002°)
1.57036280433354e-001	(-4.74309214151020e-007dB,-2.15390955553892e-002°)
1.57398286446620e-001	(-4.76498524025180e-007dB,-2.15887482955327e-002°)
1.57761126969933e-001	(-4.78697942945282e-007dB,-2.16385154970419e-002°)
1.58124803927037e-001	(-4.80907507555778e-007dB,-2.16883974237775e-002°)
1.58489319246110e-001	(-4.83127276680655e-007dB,-2.17383943402082e-002°)
1.58854674859776e-001	(-4.85357292750331e-007dB,-2.17885065114126e-002°)
1.59220872705115e-001	(-4.87597598195225e-007dB,-2.18387342030801e-002°)
1.59587914723672e-001	(-4.89848249910669e-007dB,-2.18890776815128e-002°)
1.59955802861465e-001	(-4.92109282612462e-007dB,-2.19395372136267e-002°)
1.60324539069002e-001	(-4.94380758981901e-007dB,-2.19901130669528e-002°)
1.60694125301286e-001	(-4.96662716627767e-007dB,-2.20408055096392e-002°)
1.61064563517825e-001	(-4.98955203766445e-007dB,-2.20916148104519e-002°)
1.61435855682647e-001	(-5.01258277293267e-007dB,-2.21425412387766e-002°)
1.61808003764305e-001	(-5.03571982531634e-007dB,-2.21935850646198e-002°)
1.62181009735891e-001	(-5.05896364804949e-007dB,-2.22447465586108e-002°)
1.62554875575047e-001	(-5.08231478115562e-007dB,-2.22960259920023e-002°)
1.62929603263970e-001	(-5.10577365858220e-007dB,-2.23474236366727e-002°)
1.63305194789432e-001	(-5.12934085892583e-007dB,-2.23989397651269e-002°)
1.63681652142779e-001	(-5.15301678720416e-007dB,-2.24505746504981e-002°)
1.64058977319952e-001	(-5.17680202201379e-007dB,-2.25023285665491e-002°)
1.64437172321491e-001	(-5.20069706480512e-007dB,-2.25542017876737e-002°)
1.64816239152549e-001	(-5.22470240738529e-007dB,-2.26061945888985e-002°)
1.65196179822900e-001	(-5.24881850298832e-007dB,-2.26583072458838e-002°)
1.65576996346951e-001	(-5.27304596878392e-007dB,-2.27105400349255e-002°)
1.65958690743754e-001	(-5.29738525800611e-007dB,-2.27628932329564e-002°)
1.66341265037015e-001	(-5.32183687210531e-007dB,-2.28153671175478e-002°)
1.66724721255104e-001	(-5.34640132217521e-007dB,-2.28679619669108e-002°)
1.67109061431069e-001	(-5.37107919645568e-007dB,-2.29206780598977e-002°)
1.67494287602642e-001	(-5.39587097711058e-007dB,-2.29735156760038e-002°)
1.67880401812254e-001	(-5.42077722344999e-007dB,-2.30264750953686e-002°)
1.68267406107045e-001	(-5.44579837906465e-007dB,-2.30795565987776e-002°)
1.68655302538872e-001	(-5.47093503219447e-007dB,-2.31327604676632e-002°)
1.69044093164324e-001	(-5.49618770357641e-007dB,-2.31860869841069e-002°)
1.69433780044731e-001	(-5.52155693323397e-007dB,-2.32395364308402e-002°)
1.69824365246172e-001	(-5.54704334798017e-007dB,-2.32931090912467e-002°)
1.70215850839493e-001	(-5.57264727568646e-007dB,-2.33468052493629e-002°)
1.70608238900310e-001	(-5.59836947817169e-007dB,-2.34006251898804e-002°)
1.71001531509027e-001	(-5.62421037974008e-007dB,-2.34545691981467e-002°)
1.71395730750840e-001	(-5.65017051077188e-007dB,-2.35086375601675e-002°)
1.71790838715757e-001	(-5.67625051736665e-007dB,-2.35628305626075e-002°)
1.72186857498599e-001	(-5.70245094919117e-007dB,-2.36171484927924e-002°)
1.72583789199018e-001	(-5.72877225947950e-007dB,-2.36715916387102e-002°)
1.72981635921508e-001	(-5.75521506540136e-007dB,-2.37261602890128e-002°)
1.73380399775412e-001	(-5.78177984912064e-007dB,-2.37808547330174e-002°)
1.73780082874935e-001	(-5.80846738209947e-007dB,-2.38356752607083e-002°)
1.74180687339159e-001	(-5.83527805006898e-007dB,-2.38906221627383e-002°)
1.74582215292048e-001	(-5.86221247984217e-007dB,-2.39456957304300e-002°)
1.74984668862463e-001	(-5.88927122108586e-007dB,-2.40008962557778e-002°)
1.75388050184174e-001	(-5.91645483311013e-007dB,-2.40562240314490e-002°)
1.75792361395867e-001	(-5.94376399094436e-007dB,-2.41116793507858e-002°)
1.76197604641161e-001	(-5.97119911889280e-007dB,-2.41672625078065e-002°)
1.76603782068614e-001	(-5.99876090162811e-007dB,-2.42229737972072e-002°)
1.77010895831740e-001	(-6.02644993703348e-007dB,-2.42788135143632e-002°)
1.77418948089014e-001	(-6.05426674584590e-007dB,-2.43347819553310e-002°)
1.77827941003890e-001	(-6.08221203202459e-007dB,-2.43908794168494e-002°)
1.78237876744807e-001	(-6.11028620058724e-007dB,-2.44471061963412e-002°)
1.78648757485203e-001	(-6.13849002299601e-007dB,-2.45034625919149e-002°)
1.79060585403527e-001	(-6.16682400070134e-007dB,-2.45599489023663e-002°)
1.79473362683250e-001	(-6.19528874122971e-007dB,-2.46165654271798e-002°)
1.79887091512876e-001	(-6.22388490032396e-007dB,-2.46733124665303e-002°)
1.80301774085954e-001	(-6.25261304693747e-007dB,-2.47301903212848e-002°)
1.80717412601090e-001	(-6.28147378859673e-007dB,-2.47871992930036e-002°)
1.81134009261958e-001	(-6.31046780033113e-007dB,-2.48443396839423e-002°)
1.81551566277311e-001	(-6.33959553537476e-007dB,-2.49016117970533e-002°)
1.81970085860996e-001	(-6.36885780376288e-007dB,-2.49590159359873e-002°)
1.82389570231961e-001	(-6.39825513587577e-007dB,-2.50165524050951e-002°)
1.82810021614272e-001	(-6.42778811031010e-007dB,-2.50742215094290e-002°)
1.83231442237119e-001	(-6.45745742138183e-007dB,-2.51320235547444e-002°)
1.83653834334832e-001	(-6.48726368626071e-007dB,-2.51899588475020e-002°)
1.84077200146893e-001	(-6.51720755104636e-007dB,-2.52480276948683e-002°)
1.84501541917945e-001	(-6.54728962326525e-007dB,-2.53062304047184e-002°)
1.84926861897805e-001	(-6.57751052008715e-007dB,-2.53645672856369e-002°)
1.85353162341479e-001	(-6.60787089725495e-007dB,-2.54230386469200e-002°)
1.85780445509167e-001	(-6.63837148765771e-007dB,-2.54816447985764e-002°)
